
T92BC 000:035 SEGGER J-Link V4.72a Log File (0001ms, 0035ms total)
T92BC 000:035 DLL Compiled: Jun 26 2013 11:49:14 (0001ms, 0035ms total)
T92BC 000:035 Logging started @ 2017-10-26 17:29 (0001ms, 0035ms total)
T92BC 000:036 JLINK_SetWarnOutHandler(...) (0000ms, 0035ms total)
T92BC 000:036 JLINK_OpenEx(...)
Firmware: J-Link ARM-OB STM32 compiled Aug 22 2012 19:52:04
Hardware: V7.00
S/N: 20090928
Feature(s): RDI,FlashDL,FlashBP,JFlash,GDBFull  returns O.K. (0013ms, 0048ms total)
T92BC 000:049 JLINK_SetErrorOutHandler(...) (0000ms, 0048ms total)
T92BC 000:049 JLINK_ExecCommand("ProjectFile = "F:\KEIL\5.青云测试代码\第三部分：BLE蓝牙实验\BLE实验8：BLEbeacon应用\Board\nrf51_beacon\pca20006\ble_app_beacon_bcs\arm\JLinkSettings.ini"", ...)  returns 0x00 (0000ms, 0048ms total)
T92BC 000:066 JLINK_ExecCommand("Device = nRF51822_xxAA", ...)
                JLINK_AddMirrorAreaEx(Addr = 0x00000000, Size = 0x00000000) (0000ms, 0000ms total)
              Device "NRF51822_XXAA" selected (257 KB flash, 8 KB RAM).  returns 0x00 (0005ms, 0053ms total)
T92BC 000:071 JLINK_ExecCommand("DisableConnectionTimeout", ...)  returns 0x00 (0000ms, 0053ms total)
T92BC 000:071 JLINK_GetHardwareVersion()  returns 0x11170 (0000ms, 0053ms total)
T92BC 000:071 JLINK_GetDLLVersion()  returns 47201 (0000ms, 0053ms total)
T92BC 000:071 JLINK_GetFirmwareString(...) (0000ms, 0053ms total)
T92BC 000:084 JLINK_GetDLLVersion()  returns 47201 (0000ms, 0053ms total)
T92BC 000:084 JLINK_GetCompileDateTime() (0000ms, 0053ms total)
T92BC 000:092 JLINK_GetFirmwareString(...) (0001ms, 0054ms total)
T92BC 000:096 JLINK_GetHardwareVersion()  returns 0x11170 (0000ms, 0054ms total)
T92BC 000:106 JLINK_TIF_Select(JLINKARM_TIF_SWD)  returns 0x00 (0001ms, 0055ms total)
T92BC 000:107 JLINK_SetSpeed(2000) (0001ms, 0056ms total)
T92BC 000:108 JLINK_GetId() >0x108 TIF>Found SWD-DP with ID 0x0BB11477 >0x35 TIF> >0x0D TIF> >0x28 TIF> >0x0D TIF> >0x28 TIF> >0x35 TIF> >0x35 TIF> >0x0D TIF> >0x28 TIF> >0x35 TIF> >0x35 TIF> >0x35 TIF> >0x35 TIF> >0x0D TIF> >0x28 TIF> >0x0D TIF> >0x28 TIF> >0x0D TIF> >0x28 TIF> >0x35 TIF> >0x35 TIF> >0x35 TIF> >0x0D TIF> >0x28 TIF> >0x0D TIF> >0x28 TIF> >0x35 TIF> >0x35 TIF> >0x0D TIF> >0x28 TIF> >0x35 TIF> >0x35 TIF> >0x0D TIF> >0x28 TIF> >0x0D TIF> >0x28 TIF> >0x0D TIF> >0x28 TIF> >0x35 TIF>
 >0x35 TIF> >0x0D TIF> >0x28 TIF> >0x0D TIF> >0x28 TIF> >0x0D TIF> >0x28 TIF> >0x35 TIF> >0x35 TIF> >0x35 TIF> >0x0D TIF> >0x28 TIF> >0x35 TIF> >0x35 TIF> >0x0D TIF> >0x28 TIF> >0x35 TIF> >0x35 TIF>FPUnit: 4 code (BP) slots and 0 literal slots >0x0D TIF> >0x28 TIF> >0x35 TIF> >0x35 TIF> >0x0D TIF> >0x28 TIF> >0x35 TIF> >0x35 TIF> >0x0D TIF> >0x28 TIF> >0x35 TIF> >0x35 TIF> >0x0D TIF> >0x28 TIF> >0x35 TIF> >0x35 TIF>Found Cortex-M0 r0p0, Little endian. >0x35 TIF>  returns 0x0BB11477
 (0037ms, 0093ms total)
T92BC 000:145 JLINK_GetDeviceFamily()  returns 6 (0000ms, 0093ms total)
T92BC 000:147 JLINK_ReadMem (0xE00FFFF0, 0x0010 Bytes, ...) -- CPU is running -- CPU_ReadMem(16 bytes @ 0xE00FFFF0) -- Data:  0D 00 00 00 10 00 00 00 05 00 00 00 B1 00 00 00  returns 0x00 (0001ms, 0094ms total)
T92BC 000:148 JLINK_ReadMem (0xE00FFFD0, 0x0020 Bytes, ...) -- CPU is running -- CPU_ReadMem(32 bytes @ 0xE00FFFD0) -- Data:  04 00 00 00 00 00 00 00 00 00 00 00 00 00 00 00 ...  returns 0x00 (0001ms, 0095ms total)
T92BC 000:149 JLINK_ReadMem (0xE00FF000, 0x0018 Bytes, ...) -- CPU is running -- CPU_ReadMem(24 bytes @ 0xE00FF000) -- Data:  03 F0 F0 FF 03 20 F0 FF 03 30 F0 FF 00 00 00 00 ...  returns 0x00 (0001ms, 0096ms total)
T92BC 000:150 JLINK_ReadMemU32(0xE000ED00, 0x0001 Items, ...) -- CPU is running -- CPU_ReadMem(4 bytes @ 0xE000ED00) -- Data:  00 C2 0C 41  returns 0x01 (0001ms, 0097ms total)
T92BC 000:151 JLINK_SetResetType(JLINKARM_RESET_TYPE_NORMAL)  returns JLINKARM_RESET_TYPE_NORMAL (0000ms, 0097ms total)
T92BC 000:151 JLINK_Reset() -- CPU is running -- CPU_WriteMem(4 bytes @ 0xE000EDF0) -- CPU is running -- CPU_WriteMem(4 bytes @ 0xE000EDFC) >0x35 TIF> -- CPU is running -- CPU_WriteMem(4 bytes @ 0xE000ED0C) -- CPU is running -- CPU_ReadMem(4 bytes @ 0xE000EDF0) -- CPU is running -- CPU_ReadMem(4 bytes @ 0xE000EDF0) -- CPU is running -- CPU_WriteMem(4 bytes @ 0xE000EDF0) -- CPU is running -- CPU_WriteMem(4 bytes @ 0xE000EDFC) -- CPU is running -- CPU_ReadMem(4 bytes @ 0xE000EDF0)
 -- CPU_WriteMem(4 bytes @ 0xE0002000) (0016ms, 0113ms total)
T92BC 000:167 JLINK_Halt()  returns 0x00 (0000ms, 0113ms total)
T92BC 000:167 JLINK_IsHalted() -- MA0 is in flash -- Unmirror addr 0x00012B98  returns TRUE (0000ms, 0113ms total)
T92BC 000:167 JLINK_ReadMemU32(0xE000EDF0, 0x0001 Items, ...) -- CPU_ReadMem(4 bytes @ 0xE000EDF0) -- Data:  03 00 03 00  returns 0x01 (0001ms, 0114ms total)
T92BC 000:168 JLINK_WriteU32(0xE000EDF0, 0xA05F0003) -- CPU_WriteMem(4 bytes @ 0xE000EDF0) -- Invalidate MA0 status  returns 0x00 (0000ms, 0114ms total)
T92BC 000:169 JLINK_WriteU32(0xE000EDFC, 0x01000000) -- CPU_WriteMem(4 bytes @ 0xE000EDFC)  returns 0x00 (0000ms, 0115ms total)
T92BC 000:178 JLINK_GetHWStatus(...)  returns 0x00 (0001ms, 0116ms total)
T92BC 000:186 JLINK_GetNumBPUnits(Type = 0xFFFFFF00)  returns 0x04 (0000ms, 0116ms total)
T92BC 000:186 JLINK_GetNumBPUnits(Type = 0xF0)  returns 0x2000 (0000ms, 0116ms total)
T92BC 000:186 JLINK_GetNumWPUnits()  returns 0x02 (0000ms, 0116ms total)
T92BC 000:192 JLINK_GetSpeed()  returns 0x7D0 (0000ms, 0116ms total)
T92BC 000:197 JLINK_ReadMemU32(0xE000E004, 0x0001 Items, ...) -- CPU_ReadMem(4 bytes @ 0xE000E004) -- Data:  00 00 00 00  returns 0x01 (0000ms, 0116ms total)
T92BC 000:197 JLINK_Halt()  returns 0x00 (0000ms, 0116ms total)
T92BC 000:197 JLINK_IsHalted() -- MA0 is in flash -- Unmirror addr 0x00012B98  returns TRUE (0000ms, 0116ms total)
T92BC 000:201 JLINK_WriteMem(0x20000000, 0x0258 Bytes, ...) -- Data:  00 BE 0A E0 0D 78 2D 06 68 40 08 24 40 00 00 D3 ... -- CPU_WriteMem(600 bytes @ 0x20000000)  returns 0x258 (0008ms, 0124ms total)
T92BC 000:209 JLINK_WriteReg(R0, 0x00000000)  returns 0x00 (0000ms, 0124ms total)
T92BC 000:209 JLINK_WriteReg(R1, 0x00F42400)  returns 0x00 (0000ms, 0124ms total)
T92BC 000:209 JLINK_WriteReg(R2, 0x00000001)  returns 0x00 (0000ms, 0124ms total)
T92BC 000:209 JLINK_WriteReg(R3, 0x00000000)  returns 0x00 (0000ms, 0124ms total)
T92BC 000:209 JLINK_WriteReg(R4, 0x00000000)  returns 0x00 (0000ms, 0124ms total)
T92BC 000:209 JLINK_WriteReg(R5, 0x00000000)  returns 0x00 (0000ms, 0124ms total)
T92BC 000:209 JLINK_WriteReg(R6, 0x00000000)  returns 0x00 (0000ms, 0124ms total)
T92BC 000:209 JLINK_WriteReg(R7, 0x00000000)  returns 0x00 (0000ms, 0124ms total)
T92BC 000:209 JLINK_WriteReg(R8, 0x00000000)  returns 0x00 (0000ms, 0124ms total)
T92BC 000:209 JLINK_WriteReg(R9, 0x20000254)  returns 0x00 (0000ms, 0124ms total)
T92BC 000:209 JLINK_WriteReg(R10, 0x00000000)  returns 0x00 (0000ms, 0124ms total)
T92BC 000:209 JLINK_WriteReg(R11, 0x00000000)  returns 0x00 (0000ms, 0124ms total)
T92BC 000:209 JLINK_WriteReg(R12, 0x00000000)  returns 0x00 (0000ms, 0124ms total)
T92BC 000:209 JLINK_WriteReg(R13 (SP), 0x20001000)  returns 0x00 (0000ms, 0124ms total)
T92BC 000:209 JLINK_WriteReg(R14, 0x20000001)  returns 0x00 (0000ms, 0124ms total)
T92BC 000:209 JLINK_WriteReg(R15 (PC), 0x20000028)  returns 0x00 (0000ms, 0124ms total)
T92BC 000:209 JLINK_WriteReg(XPSR, 0x01000000)  returns 0x00 (0000ms, 0124ms total)
T92BC 000:209 JLINK_WriteReg(MSP, 0x20001000)  returns 0x00 (0000ms, 0124ms total)
T92BC 000:209 JLINK_WriteReg(PSP, 0x20001000)  returns 0x00 (0000ms, 0124ms total)
T92BC 000:209 JLINK_WriteReg(CFBP, 0x00000000)  returns 0x00 (0000ms, 0124ms total)
T92BC 000:209 JLINK_SetBPEx(Addr = 0x20000000, Type = 0xFFFFFFF2) -- CPU_ReadMem(2 bytes @ 0x20000000)  returns 0x00000001 (0001ms, 0125ms total)
T92BC 000:210 JLINK_Go() -- CPU_WriteMem(2 bytes @ 0x20000000) -- Invalidate MA0 status -- CPU_WriteMem(4 bytes @ 0xE0002008) -- CPU_WriteMem(4 bytes @ 0xE000200C) -- CPU_WriteMem(4 bytes @ 0xE0002010) -- CPU_WriteMem(4 bytes @ 0xE0002014) (0006ms, 0131ms total)
T92BC 000:216 JLINK_IsHalted() -- CPU_ReadMem(2 bytes @ 0x20000000)  returns TRUE (0004ms, 0135ms total)
T92BC 000:220 JLINK_ReadReg(R15 (PC))  returns 0x20000000 (0000ms, 0131ms total)
T92BC 000:220 JLINK_ClrBPEx(BPHandle = 0x00000001)  returns 0x00 (0000ms, 0131ms total)
T92BC 000:220 JLINK_ReadReg(R0)  returns 0x00000000 (0000ms, 0131ms total)
T92BC 000:220 JLINK_WriteReg(R0, 0x00014000)  returns 0x00 (0000ms, 0131ms total)
T92BC 000:220 JLINK_WriteReg(R1, 0x00000400)  returns 0x00 (0000ms, 0131ms total)
T92BC 000:220 JLINK_WriteReg(R2, 0x000000FF)  returns 0x00 (0000ms, 0131ms total)
T92BC 000:220 JLINK_WriteReg(R3, 0x00000000)  returns 0x00 (0000ms, 0131ms total)
T92BC 000:220 JLINK_WriteReg(R4, 0x00000000)  returns 0x00 (0000ms, 0131ms total)
T92BC 000:220 JLINK_WriteReg(R5, 0x00000000)  returns 0x00 (0000ms, 0131ms total)
T92BC 000:220 JLINK_WriteReg(R6, 0x00000000)  returns 0x00 (0000ms, 0131ms total)
T92BC 000:220 JLINK_WriteReg(R7, 0x00000000)  returns 0x00 (0000ms, 0131ms total)
T92BC 000:220 JLINK_WriteReg(R8, 0x00000000)  returns 0x00 (0000ms, 0131ms total)
T92BC 000:220 JLINK_WriteReg(R9, 0x20000254)  returns 0x00 (0000ms, 0131ms total)
T92BC 000:220 JLINK_WriteReg(R10, 0x00000000)  returns 0x00 (0000ms, 0131ms total)
T92BC 000:220 JLINK_WriteReg(R11, 0x00000000)  returns 0x00 (0000ms, 0131ms total)
T92BC 000:220 JLINK_WriteReg(R12, 0x00000000)  returns 0x00 (0000ms, 0131ms total)
T92BC 000:220 JLINK_WriteReg(R13 (SP), 0x20001000)  returns 0x00 (0000ms, 0131ms total)
T92BC 000:220 JLINK_WriteReg(R14, 0x20000001)  returns 0x00 (0000ms, 0131ms total)
T92BC 000:221 JLINK_WriteReg(R15 (PC), 0x200001F2)  returns 0x00 (0000ms, 0132ms total)
T92BC 000:221 JLINK_WriteReg(XPSR, 0x01000000)  returns 0x00 (0000ms, 0132ms total)
T92BC 000:221 JLINK_WriteReg(MSP, 0x20001000)  returns 0x00 (0000ms, 0132ms total)
T92BC 000:221 JLINK_WriteReg(PSP, 0x20001000)  returns 0x00 (0000ms, 0132ms total)
T92BC 000:221 JLINK_WriteReg(CFBP, 0x00000000)  returns 0x00 (0000ms, 0132ms total)
T92BC 000:221 JLINK_SetBPEx(Addr = 0x20000000, Type = 0xFFFFFFF2)  returns 0x00000002 (0000ms, 0132ms total)
T92BC 000:221 JLINK_Go() (0001ms, 0133ms total)
T92BC 000:222 JLINK_IsHalted()  returns FALSE (0001ms, 0134ms total)
T92BC 000:262 JLINK_IsHalted() -- CPU_ReadMem(2 bytes @ 0x20000000)  returns TRUE (0003ms, 0136ms total)
T92BC 000:266 JLINK_ReadReg(R15 (PC))  returns 0x20000000 (0000ms, 0133ms total)
T92BC 000:266 JLINK_ClrBPEx(BPHandle = 0x00000002)  returns 0x00 (0000ms, 0133ms total)
T92BC 000:266 JLINK_ReadReg(R0)  returns 0x00000000 (0000ms, 0133ms total)
T92BC 000:267 JLINK_WriteReg(R0, 0x00014400)  returns 0x00 (0000ms, 0133ms total)
T92BC 000:267 JLINK_WriteReg(R1, 0x00000400)  returns 0x00 (0000ms, 0133ms total)
T92BC 000:267 JLINK_WriteReg(R2, 0x000000FF)  returns 0x00 (0000ms, 0133ms total)
T92BC 000:267 JLINK_WriteReg(R3, 0x00000000)  returns 0x00 (0000ms, 0133ms total)
T92BC 000:267 JLINK_WriteReg(R4, 0x00000000)  returns 0x00 (0000ms, 0133ms total)
T92BC 000:267 JLINK_WriteReg(R5, 0x00000000)  returns 0x00 (0000ms, 0133ms total)
T92BC 000:267 JLINK_WriteReg(R6, 0x00000000)  returns 0x00 (0000ms, 0133ms total)
T92BC 000:268 JLINK_WriteReg(R7, 0x00000000)  returns 0x00 (0000ms, 0134ms total)
T92BC 000:268 JLINK_WriteReg(R8, 0x00000000)  returns 0x00 (0000ms, 0134ms total)
T92BC 000:268 JLINK_WriteReg(R9, 0x20000254)  returns 0x00 (0000ms, 0134ms total)
T92BC 000:268 JLINK_WriteReg(R10, 0x00000000)  returns 0x00 (0000ms, 0134ms total)
T92BC 000:268 JLINK_WriteReg(R11, 0x00000000)  returns 0x00 (0000ms, 0134ms total)
T92BC 000:268 JLINK_WriteReg(R12, 0x00000000)  returns 0x00 (0000ms, 0134ms total)
T92BC 000:268 JLINK_WriteReg(R13 (SP), 0x20001000)  returns 0x00 (0000ms, 0134ms total)
T92BC 000:268 JLINK_WriteReg(R14, 0x20000001)  returns 0x00 (0000ms, 0134ms total)
T92BC 000:268 JLINK_WriteReg(R15 (PC), 0x200001F2)  returns 0x00 (0000ms, 0134ms total)
T92BC 000:268 JLINK_WriteReg(XPSR, 0x01000000)  returns 0x00 (0000ms, 0134ms total)
T92BC 000:268 JLINK_WriteReg(MSP, 0x20001000)  returns 0x00 (0000ms, 0134ms total)
T92BC 000:268 JLINK_WriteReg(PSP, 0x20001000)  returns 0x00 (0000ms, 0134ms total)
T92BC 000:268 JLINK_WriteReg(CFBP, 0x00000000)  returns 0x00 (0000ms, 0134ms total)
T92BC 000:268 JLINK_SetBPEx(Addr = 0x20000000, Type = 0xFFFFFFF2)  returns 0x00000003 (0000ms, 0134ms total)
T92BC 000:268 JLINK_Go() (0001ms, 0135ms total)
T92BC 000:269 JLINK_IsHalted()  returns FALSE (0001ms, 0136ms total)
T92BC 000:271 JLINK_IsHalted() -- CPU_ReadMem(2 bytes @ 0x20000000)  returns TRUE (0003ms, 0138ms total)
T92BC 000:274 JLINK_ReadReg(R15 (PC))  returns 0x20000000 (0001ms, 0136ms total)
T92BC 000:275 JLINK_ClrBPEx(BPHandle = 0x00000003)  returns 0x00 (0000ms, 0136ms total)
T92BC 000:275 JLINK_ReadReg(R0)  returns 0x00000000 (0000ms, 0136ms total)
T92BC 000:275 JLINK_WriteReg(R0, 0x00014800)  returns 0x00 (0000ms, 0136ms total)
T92BC 000:275 JLINK_WriteReg(R1, 0x00000400)  returns 0x00 (0000ms, 0136ms total)
T92BC 000:275 JLINK_WriteReg(R2, 0x000000FF)  returns 0x00 (0000ms, 0136ms total)
T92BC 000:275 JLINK_WriteReg(R3, 0x00000000)  returns 0x00 (0000ms, 0136ms total)
T92BC 000:275 JLINK_WriteReg(R4, 0x00000000)  returns 0x00 (0000ms, 0136ms total)
T92BC 000:275 JLINK_WriteReg(R5, 0x00000000)  returns 0x00 (0000ms, 0136ms total)
T92BC 000:275 JLINK_WriteReg(R6, 0x00000000)  returns 0x00 (0000ms, 0136ms total)
T92BC 000:275 JLINK_WriteReg(R7, 0x00000000)  returns 0x00 (0000ms, 0136ms total)
T92BC 000:275 JLINK_WriteReg(R8, 0x00000000)  returns 0x00 (0000ms, 0136ms total)
T92BC 000:275 JLINK_WriteReg(R9, 0x20000254)  returns 0x00 (0000ms, 0136ms total)
T92BC 000:275 JLINK_WriteReg(R10, 0x00000000)  returns 0x00 (0000ms, 0136ms total)
T92BC 000:275 JLINK_WriteReg(R11, 0x00000000)  returns 0x00 (0000ms, 0136ms total)
T92BC 000:275 JLINK_WriteReg(R12, 0x00000000)  returns 0x00 (0000ms, 0136ms total)
T92BC 000:275 JLINK_WriteReg(R13 (SP), 0x20001000)  returns 0x00 (0000ms, 0136ms total)
T92BC 000:275 JLINK_WriteReg(R14, 0x20000001)  returns 0x00 (0000ms, 0136ms total)
T92BC 000:275 JLINK_WriteReg(R15 (PC), 0x200001F2)  returns 0x00 (0000ms, 0136ms total)
T92BC 000:275 JLINK_WriteReg(XPSR, 0x01000000)  returns 0x00 (0000ms, 0136ms total)
T92BC 000:275 JLINK_WriteReg(MSP, 0x20001000)  returns 0x00 (0000ms, 0136ms total)
T92BC 000:275 JLINK_WriteReg(PSP, 0x20001000)  returns 0x00 (0001ms, 0137ms total)
T92BC 000:276 JLINK_WriteReg(CFBP, 0x00000000)  returns 0x00 (0000ms, 0137ms total)
T92BC 000:276 JLINK_SetBPEx(Addr = 0x20000000, Type = 0xFFFFFFF2)  returns 0x00000004 (0000ms, 0137ms total)
T92BC 000:276 JLINK_Go() (0001ms, 0138ms total)
T92BC 000:277 JLINK_IsHalted()  returns FALSE (0001ms, 0139ms total)
T92BC 000:279 JLINK_IsHalted() -- CPU_ReadMem(2 bytes @ 0x20000000)  returns TRUE (0003ms, 0141ms total)
T92BC 000:282 JLINK_ReadReg(R15 (PC))  returns 0x20000000 (0001ms, 0139ms total)
T92BC 000:283 JLINK_ClrBPEx(BPHandle = 0x00000004)  returns 0x00 (0000ms, 0139ms total)
T92BC 000:283 JLINK_ReadReg(R0)  returns 0x00000000 (0000ms, 0139ms total)
T92BC 000:283 JLINK_WriteReg(R0, 0x00014C00)  returns 0x00 (0000ms, 0139ms total)
T92BC 000:283 JLINK_WriteReg(R1, 0x00000400)  returns 0x00 (0000ms, 0139ms total)
T92BC 000:283 JLINK_WriteReg(R2, 0x000000FF)  returns 0x00 (0000ms, 0139ms total)
T92BC 000:283 JLINK_WriteReg(R3, 0x00000000)  returns 0x00 (0000ms, 0139ms total)
T92BC 000:283 JLINK_WriteReg(R4, 0x00000000)  returns 0x00 (0000ms, 0139ms total)
T92BC 000:283 JLINK_WriteReg(R5, 0x00000000)  returns 0x00 (0000ms, 0139ms total)
T92BC 000:283 JLINK_WriteReg(R6, 0x00000000)  returns 0x00 (0000ms, 0139ms total)
T92BC 000:283 JLINK_WriteReg(R7, 0x00000000)  returns 0x00 (0000ms, 0139ms total)
T92BC 000:283 JLINK_WriteReg(R8, 0x00000000)  returns 0x00 (0000ms, 0139ms total)
T92BC 000:283 JLINK_WriteReg(R9, 0x20000254)  returns 0x00 (0000ms, 0139ms total)
T92BC 000:283 JLINK_WriteReg(R10, 0x00000000)  returns 0x00 (0000ms, 0139ms total)
T92BC 000:283 JLINK_WriteReg(R11, 0x00000000)  returns 0x00 (0000ms, 0139ms total)
T92BC 000:283 JLINK_WriteReg(R12, 0x00000000)  returns 0x00 (0000ms, 0139ms total)
T92BC 000:283 JLINK_WriteReg(R13 (SP), 0x20001000)  returns 0x00 (0000ms, 0139ms total)
T92BC 000:283 JLINK_WriteReg(R14, 0x20000001)  returns 0x00 (0000ms, 0139ms total)
T92BC 000:283 JLINK_WriteReg(R15 (PC), 0x200001F2)  returns 0x00 (0000ms, 0139ms total)
T92BC 000:283 JLINK_WriteReg(XPSR, 0x01000000)  returns 0x00 (0000ms, 0139ms total)
T92BC 000:283 JLINK_WriteReg(MSP, 0x20001000)  returns 0x00 (0001ms, 0140ms total)
T92BC 000:284 JLINK_WriteReg(PSP, 0x20001000)  returns 0x00 (0000ms, 0140ms total)
T92BC 000:284 JLINK_WriteReg(CFBP, 0x00000000)  returns 0x00 (0000ms, 0140ms total)
T92BC 000:284 JLINK_SetBPEx(Addr = 0x20000000, Type = 0xFFFFFFF2)  returns 0x00000005 (0000ms, 0140ms total)
T92BC 000:284 JLINK_Go() (0001ms, 0141ms total)
T92BC 000:285 JLINK_IsHalted()  returns FALSE (0001ms, 0142ms total)
T92BC 000:287 JLINK_IsHalted() -- CPU_ReadMem(2 bytes @ 0x20000000)  returns TRUE (0003ms, 0144ms total)
T92BC 000:290 JLINK_ReadReg(R15 (PC))  returns 0x20000000 (0001ms, 0142ms total)
T92BC 000:291 JLINK_ClrBPEx(BPHandle = 0x00000005)  returns 0x00 (0000ms, 0142ms total)
T92BC 000:291 JLINK_ReadReg(R0)  returns 0x00000000 (0000ms, 0142ms total)
T92BC 000:291 JLINK_WriteReg(R0, 0x00015000)  returns 0x00 (0000ms, 0142ms total)
T92BC 000:291 JLINK_WriteReg(R1, 0x00000400)  returns 0x00 (0000ms, 0142ms total)
T92BC 000:291 JLINK_WriteReg(R2, 0x000000FF)  returns 0x00 (0000ms, 0142ms total)
T92BC 000:291 JLINK_WriteReg(R3, 0x00000000)  returns 0x00 (0000ms, 0142ms total)
T92BC 000:291 JLINK_WriteReg(R4, 0x00000000)  returns 0x00 (0000ms, 0142ms total)
T92BC 000:291 JLINK_WriteReg(R5, 0x00000000)  returns 0x00 (0000ms, 0142ms total)
T92BC 000:291 JLINK_WriteReg(R6, 0x00000000)  returns 0x00 (0000ms, 0142ms total)
T92BC 000:291 JLINK_WriteReg(R7, 0x00000000)  returns 0x00 (0000ms, 0142ms total)
T92BC 000:291 JLINK_WriteReg(R8, 0x00000000)  returns 0x00 (0000ms, 0142ms total)
T92BC 000:291 JLINK_WriteReg(R9, 0x20000254)  returns 0x00 (0000ms, 0142ms total)
T92BC 000:291 JLINK_WriteReg(R10, 0x00000000)  returns 0x00 (0001ms, 0143ms total)
T92BC 000:292 JLINK_WriteReg(R11, 0x00000000)  returns 0x00 (0000ms, 0143ms total)
T92BC 000:292 JLINK_WriteReg(R12, 0x00000000)  returns 0x00 (0000ms, 0143ms total)
T92BC 000:292 JLINK_WriteReg(R13 (SP), 0x20001000)  returns 0x00 (0000ms, 0143ms total)
T92BC 000:292 JLINK_WriteReg(R14, 0x20000001)  returns 0x00 (0000ms, 0143ms total)
T92BC 000:292 JLINK_WriteReg(R15 (PC), 0x200001F2)  returns 0x00 (0000ms, 0143ms total)
T92BC 000:292 JLINK_WriteReg(XPSR, 0x01000000)  returns 0x00 (0000ms, 0143ms total)
T92BC 000:292 JLINK_WriteReg(MSP, 0x20001000)  returns 0x00 (0000ms, 0143ms total)
T92BC 000:292 JLINK_WriteReg(PSP, 0x20001000)  returns 0x00 (0000ms, 0143ms total)
T92BC 000:292 JLINK_WriteReg(CFBP, 0x00000000)  returns 0x00 (0000ms, 0143ms total)
T92BC 000:292 JLINK_SetBPEx(Addr = 0x20000000, Type = 0xFFFFFFF2)  returns 0x00000006 (0000ms, 0143ms total)
T92BC 000:292 JLINK_Go() (0002ms, 0145ms total)
T92BC 000:294 JLINK_IsHalted()  returns FALSE (0000ms, 0145ms total)
T92BC 000:300 JLINK_IsHalted() -- CPU_ReadMem(2 bytes @ 0x20000000)  returns TRUE (0003ms, 0148ms total)
T92BC 000:303 JLINK_ReadReg(R15 (PC))  returns 0x20000000 (0001ms, 0146ms total)
T92BC 000:304 JLINK_ClrBPEx(BPHandle = 0x00000006)  returns 0x00 (0000ms, 0146ms total)
T92BC 000:304 JLINK_ReadReg(R0)  returns 0x00000000 (0000ms, 0146ms total)
T92BC 000:304 JLINK_WriteReg(R0, 0x00015400)  returns 0x00 (0000ms, 0146ms total)
T92BC 000:304 JLINK_WriteReg(R1, 0x00000400)  returns 0x00 (0000ms, 0146ms total)
T92BC 000:304 JLINK_WriteReg(R2, 0x000000FF)  returns 0x00 (0000ms, 0146ms total)
T92BC 000:304 JLINK_WriteReg(R3, 0x00000000)  returns 0x00 (0000ms, 0146ms total)
T92BC 000:304 JLINK_WriteReg(R4, 0x00000000)  returns 0x00 (0000ms, 0146ms total)
T92BC 000:304 JLINK_WriteReg(R5, 0x00000000)  returns 0x00 (0000ms, 0146ms total)
T92BC 000:304 JLINK_WriteReg(R6, 0x00000000)  returns 0x00 (0000ms, 0146ms total)
T92BC 000:304 JLINK_WriteReg(R7, 0x00000000)  returns 0x00 (0000ms, 0146ms total)
T92BC 000:304 JLINK_WriteReg(R8, 0x00000000)  returns 0x00 (0000ms, 0146ms total)
T92BC 000:304 JLINK_WriteReg(R9, 0x20000254)  returns 0x00 (0000ms, 0146ms total)
T92BC 000:304 JLINK_WriteReg(R10, 0x00000000)  returns 0x00 (0000ms, 0146ms total)
T92BC 000:304 JLINK_WriteReg(R11, 0x00000000)  returns 0x00 (0000ms, 0146ms total)
T92BC 000:304 JLINK_WriteReg(R12, 0x00000000)  returns 0x00 (0000ms, 0146ms total)
T92BC 000:304 JLINK_WriteReg(R13 (SP), 0x20001000)  returns 0x00 (0000ms, 0146ms total)
T92BC 000:304 JLINK_WriteReg(R14, 0x20000001)  returns 0x00 (0000ms, 0146ms total)
T92BC 000:304 JLINK_WriteReg(R15 (PC), 0x200001F2)  returns 0x00 (0000ms, 0146ms total)
T92BC 000:304 JLINK_WriteReg(XPSR, 0x01000000)  returns 0x00 (0000ms, 0146ms total)
T92BC 000:304 JLINK_WriteReg(MSP, 0x20001000)  returns 0x00 (0000ms, 0146ms total)
T92BC 000:304 JLINK_WriteReg(PSP, 0x20001000)  returns 0x00 (0001ms, 0147ms total)
T92BC 000:305 JLINK_WriteReg(CFBP, 0x00000000)  returns 0x00 (0000ms, 0147ms total)
T92BC 000:305 JLINK_SetBPEx(Addr = 0x20000000, Type = 0xFFFFFFF2)  returns 0x00000007 (0000ms, 0147ms total)
T92BC 000:305 JLINK_Go() (0001ms, 0148ms total)
T92BC 000:306 JLINK_IsHalted()  returns FALSE (0001ms, 0149ms total)
T92BC 000:308 JLINK_IsHalted() -- CPU_ReadMem(2 bytes @ 0x20000000)  returns TRUE (0004ms, 0152ms total)
T92BC 000:312 JLINK_ReadReg(R15 (PC))  returns 0x20000000 (0000ms, 0148ms total)
T92BC 000:312 JLINK_ClrBPEx(BPHandle = 0x00000007)  returns 0x00 (0000ms, 0148ms total)
T92BC 000:312 JLINK_ReadReg(R0)  returns 0x00000000 (0000ms, 0148ms total)
T92BC 000:312 JLINK_WriteReg(R0, 0x00015800)  returns 0x00 (0000ms, 0148ms total)
T92BC 000:312 JLINK_WriteReg(R1, 0x00000400)  returns 0x00 (0000ms, 0148ms total)
T92BC 000:312 JLINK_WriteReg(R2, 0x000000FF)  returns 0x00 (0000ms, 0148ms total)
T92BC 000:312 JLINK_WriteReg(R3, 0x00000000)  returns 0x00 (0000ms, 0148ms total)
T92BC 000:312 JLINK_WriteReg(R4, 0x00000000)  returns 0x00 (0000ms, 0148ms total)
T92BC 000:312 JLINK_WriteReg(R5, 0x00000000)  returns 0x00 (0000ms, 0148ms total)
T92BC 000:312 JLINK_WriteReg(R6, 0x00000000)  returns 0x00 (0000ms, 0148ms total)
T92BC 000:312 JLINK_WriteReg(R7, 0x00000000)  returns 0x00 (0000ms, 0148ms total)
T92BC 000:312 JLINK_WriteReg(R8, 0x00000000)  returns 0x00 (0000ms, 0148ms total)
T92BC 000:312 JLINK_WriteReg(R9, 0x20000254)  returns 0x00 (0000ms, 0148ms total)
T92BC 000:312 JLINK_WriteReg(R10, 0x00000000)  returns 0x00 (0000ms, 0148ms total)
T92BC 000:312 JLINK_WriteReg(R11, 0x00000000)  returns 0x00 (0000ms, 0148ms total)
T92BC 000:312 JLINK_WriteReg(R12, 0x00000000)  returns 0x00 (0000ms, 0148ms total)
T92BC 000:312 JLINK_WriteReg(R13 (SP), 0x20001000)  returns 0x00 (0000ms, 0148ms total)
T92BC 000:312 JLINK_WriteReg(R14, 0x20000001)  returns 0x00 (0000ms, 0148ms total)
T92BC 000:313 JLINK_WriteReg(R15 (PC), 0x200001F2)  returns 0x00 (0000ms, 0148ms total)
T92BC 000:313 JLINK_WriteReg(XPSR, 0x01000000)  returns 0x00 (0000ms, 0148ms total)
T92BC 000:313 JLINK_WriteReg(MSP, 0x20001000)  returns 0x00 (0000ms, 0148ms total)
T92BC 000:313 JLINK_WriteReg(PSP, 0x20001000)  returns 0x00 (0000ms, 0148ms total)
T92BC 000:313 JLINK_WriteReg(CFBP, 0x00000000)  returns 0x00 (0000ms, 0148ms total)
T92BC 000:313 JLINK_SetBPEx(Addr = 0x20000000, Type = 0xFFFFFFF2)  returns 0x00000008 (0000ms, 0148ms total)
T92BC 000:313 JLINK_Go() (0001ms, 0149ms total)
T92BC 000:314 JLINK_IsHalted()  returns FALSE (0001ms, 0150ms total)
T92BC 000:316 JLINK_IsHalted() -- CPU_ReadMem(2 bytes @ 0x20000000)  returns TRUE (0003ms, 0152ms total)
T92BC 000:320 JLINK_ReadReg(R15 (PC))  returns 0x20000000 (0000ms, 0149ms total)
T92BC 000:320 JLINK_ClrBPEx(BPHandle = 0x00000008)  returns 0x00 (0000ms, 0149ms total)
T92BC 000:320 JLINK_ReadReg(R0)  returns 0x00000000 (0000ms, 0149ms total)
T92BC 000:320 JLINK_WriteReg(R0, 0x00015C00)  returns 0x00 (0000ms, 0149ms total)
T92BC 000:320 JLINK_WriteReg(R1, 0x00000400)  returns 0x00 (0000ms, 0149ms total)
T92BC 000:320 JLINK_WriteReg(R2, 0x000000FF)  returns 0x00 (0000ms, 0149ms total)
T92BC 000:320 JLINK_WriteReg(R3, 0x00000000)  returns 0x00 (0000ms, 0149ms total)
T92BC 000:320 JLINK_WriteReg(R4, 0x00000000)  returns 0x00 (0000ms, 0149ms total)
T92BC 000:320 JLINK_WriteReg(R5, 0x00000000)  returns 0x00 (0000ms, 0149ms total)
T92BC 000:320 JLINK_WriteReg(R6, 0x00000000)  returns 0x00 (0000ms, 0149ms total)
T92BC 000:320 JLINK_WriteReg(R7, 0x00000000)  returns 0x00 (0000ms, 0149ms total)
T92BC 000:320 JLINK_WriteReg(R8, 0x00000000)  returns 0x00 (0000ms, 0149ms total)
T92BC 000:320 JLINK_WriteReg(R9, 0x20000254)  returns 0x00 (0000ms, 0149ms total)
T92BC 000:320 JLINK_WriteReg(R10, 0x00000000)  returns 0x00 (0000ms, 0149ms total)
T92BC 000:320 JLINK_WriteReg(R11, 0x00000000)  returns 0x00 (0000ms, 0149ms total)
T92BC 000:320 JLINK_WriteReg(R12, 0x00000000)  returns 0x00 (0000ms, 0149ms total)
T92BC 000:320 JLINK_WriteReg(R13 (SP), 0x20001000)  returns 0x00 (0000ms, 0149ms total)
T92BC 000:320 JLINK_WriteReg(R14, 0x20000001)  returns 0x00 (0000ms, 0149ms total)
T92BC 000:320 JLINK_WriteReg(R15 (PC), 0x200001F2)  returns 0x00 (0000ms, 0149ms total)
T92BC 000:320 JLINK_WriteReg(XPSR, 0x01000000)  returns 0x00 (0000ms, 0149ms total)
T92BC 000:320 JLINK_WriteReg(MSP, 0x20001000)  returns 0x00 (0000ms, 0149ms total)
T92BC 000:321 JLINK_WriteReg(PSP, 0x20001000)  returns 0x00 (0000ms, 0150ms total)
T92BC 000:321 JLINK_WriteReg(CFBP, 0x00000000)  returns 0x00 (0000ms, 0150ms total)
T92BC 000:321 JLINK_SetBPEx(Addr = 0x20000000, Type = 0xFFFFFFF2)  returns 0x00000009 (0000ms, 0150ms total)
T92BC 000:321 JLINK_Go() (0001ms, 0151ms total)
T92BC 000:322 JLINK_IsHalted()  returns FALSE (0001ms, 0152ms total)
T92BC 000:324 JLINK_IsHalted() -- CPU_ReadMem(2 bytes @ 0x20000000)  returns TRUE (0003ms, 0154ms total)
T92BC 000:328 JLINK_ReadReg(R15 (PC))  returns 0x20000000 (0000ms, 0151ms total)
T92BC 000:328 JLINK_ClrBPEx(BPHandle = 0x00000009)  returns 0x00 (0000ms, 0151ms total)
T92BC 000:328 JLINK_ReadReg(R0)  returns 0x00000000 (0000ms, 0151ms total)
T92BC 000:328 JLINK_WriteReg(R0, 0x00016000)  returns 0x00 (0000ms, 0151ms total)
T92BC 000:328 JLINK_WriteReg(R1, 0x00000400)  returns 0x00 (0000ms, 0151ms total)
T92BC 000:328 JLINK_WriteReg(R2, 0x000000FF)  returns 0x00 (0000ms, 0151ms total)
T92BC 000:328 JLINK_WriteReg(R3, 0x00000000)  returns 0x00 (0000ms, 0151ms total)
T92BC 000:328 JLINK_WriteReg(R4, 0x00000000)  returns 0x00 (0000ms, 0151ms total)
T92BC 000:328 JLINK_WriteReg(R5, 0x00000000)  returns 0x00 (0000ms, 0151ms total)
T92BC 000:328 JLINK_WriteReg(R6, 0x00000000)  returns 0x00 (0000ms, 0151ms total)
T92BC 000:328 JLINK_WriteReg(R7, 0x00000000)  returns 0x00 (0000ms, 0151ms total)
T92BC 000:328 JLINK_WriteReg(R8, 0x00000000)  returns 0x00 (0000ms, 0151ms total)
T92BC 000:328 JLINK_WriteReg(R9, 0x20000254)  returns 0x00 (0000ms, 0151ms total)
T92BC 000:328 JLINK_WriteReg(R10, 0x00000000)  returns 0x00 (0000ms, 0151ms total)
T92BC 000:328 JLINK_WriteReg(R11, 0x00000000)  returns 0x00 (0000ms, 0151ms total)
T92BC 000:328 JLINK_WriteReg(R12, 0x00000000)  returns 0x00 (0000ms, 0151ms total)
T92BC 000:328 JLINK_WriteReg(R13 (SP), 0x20001000)  returns 0x00 (0000ms, 0151ms total)
T92BC 000:328 JLINK_WriteReg(R14, 0x20000001)  returns 0x00 (0000ms, 0151ms total)
T92BC 000:328 JLINK_WriteReg(R15 (PC), 0x200001F2)  returns 0x00 (0000ms, 0151ms total)
T92BC 000:328 JLINK_WriteReg(XPSR, 0x01000000)  returns 0x00 (0001ms, 0152ms total)
T92BC 000:329 JLINK_WriteReg(MSP, 0x20001000)  returns 0x00 (0000ms, 0152ms total)
T92BC 000:329 JLINK_WriteReg(PSP, 0x20001000)  returns 0x00 (0000ms, 0152ms total)
T92BC 000:329 JLINK_WriteReg(CFBP, 0x00000000)  returns 0x00 (0000ms, 0152ms total)
T92BC 000:329 JLINK_SetBPEx(Addr = 0x20000000, Type = 0xFFFFFFF2)  returns 0x0000000A (0000ms, 0152ms total)
T92BC 000:329 JLINK_Go() (0001ms, 0153ms total)
T92BC 000:331 JLINK_IsHalted() -- CPU_ReadMem(2 bytes @ 0x20000000)  returns TRUE (0003ms, 0156ms total)
T92BC 000:334 JLINK_ReadReg(R15 (PC))  returns 0x20000000 (0001ms, 0154ms total)
T92BC 000:335 JLINK_ClrBPEx(BPHandle = 0x0000000A)  returns 0x00 (0000ms, 0154ms total)
T92BC 000:335 JLINK_ReadReg(R0)  returns 0x00000000 (0000ms, 0154ms total)
T92BC 000:335 JLINK_WriteReg(R0, 0x00016400)  returns 0x00 (0000ms, 0154ms total)
T92BC 000:335 JLINK_WriteReg(R1, 0x00000400)  returns 0x00 (0000ms, 0154ms total)
T92BC 000:335 JLINK_WriteReg(R2, 0x000000FF)  returns 0x00 (0000ms, 0154ms total)
T92BC 000:335 JLINK_WriteReg(R3, 0x00000000)  returns 0x00 (0000ms, 0154ms total)
T92BC 000:335 JLINK_WriteReg(R4, 0x00000000)  returns 0x00 (0000ms, 0154ms total)
T92BC 000:335 JLINK_WriteReg(R5, 0x00000000)  returns 0x00 (0000ms, 0154ms total)
T92BC 000:335 JLINK_WriteReg(R6, 0x00000000)  returns 0x00 (0000ms, 0154ms total)
T92BC 000:335 JLINK_WriteReg(R7, 0x00000000)  returns 0x00 (0000ms, 0154ms total)
T92BC 000:335 JLINK_WriteReg(R8, 0x00000000)  returns 0x00 (0000ms, 0154ms total)
T92BC 000:335 JLINK_WriteReg(R9, 0x20000254)  returns 0x00 (0000ms, 0154ms total)
T92BC 000:335 JLINK_WriteReg(R10, 0x00000000)  returns 0x00 (0000ms, 0154ms total)
T92BC 000:335 JLINK_WriteReg(R11, 0x00000000)  returns 0x00 (0000ms, 0154ms total)
T92BC 000:335 JLINK_WriteReg(R12, 0x00000000)  returns 0x00 (0000ms, 0154ms total)
T92BC 000:335 JLINK_WriteReg(R13 (SP), 0x20001000)  returns 0x00 (0000ms, 0154ms total)
T92BC 000:335 JLINK_WriteReg(R14, 0x20000001)  returns 0x00 (0000ms, 0154ms total)
T92BC 000:335 JLINK_WriteReg(R15 (PC), 0x200001F2)  returns 0x00 (0000ms, 0154ms total)
T92BC 000:335 JLINK_WriteReg(XPSR, 0x01000000)  returns 0x00 (0000ms, 0154ms total)
T92BC 000:335 JLINK_WriteReg(MSP, 0x20001000)  returns 0x00 (0000ms, 0154ms total)
T92BC 000:335 JLINK_WriteReg(PSP, 0x20001000)  returns 0x00 (0001ms, 0155ms total)
T92BC 000:336 JLINK_WriteReg(CFBP, 0x00000000)  returns 0x00 (0000ms, 0155ms total)
T92BC 000:336 JLINK_SetBPEx(Addr = 0x20000000, Type = 0xFFFFFFF2)  returns 0x0000000B (0000ms, 0155ms total)
T92BC 000:336 JLINK_Go() (0001ms, 0156ms total)
T92BC 000:337 JLINK_IsHalted()  returns FALSE (0001ms, 0157ms total)
T92BC 000:339 JLINK_IsHalted() -- CPU_ReadMem(2 bytes @ 0x20000000)  returns TRUE (0003ms, 0159ms total)
T92BC 000:342 JLINK_ReadReg(R15 (PC))  returns 0x20000000 (0001ms, 0157ms total)
T92BC 000:343 JLINK_ClrBPEx(BPHandle = 0x0000000B)  returns 0x00 (0000ms, 0157ms total)
T92BC 000:343 JLINK_ReadReg(R0)  returns 0x00000000 (0000ms, 0157ms total)
T92BC 000:343 JLINK_WriteReg(R0, 0x00016800)  returns 0x00 (0000ms, 0157ms total)
T92BC 000:343 JLINK_WriteReg(R1, 0x00000400)  returns 0x00 (0000ms, 0157ms total)
T92BC 000:343 JLINK_WriteReg(R2, 0x000000FF)  returns 0x00 (0000ms, 0157ms total)
T92BC 000:343 JLINK_WriteReg(R3, 0x00000000)  returns 0x00 (0000ms, 0157ms total)
T92BC 000:343 JLINK_WriteReg(R4, 0x00000000)  returns 0x00 (0000ms, 0157ms total)
T92BC 000:343 JLINK_WriteReg(R5, 0x00000000)  returns 0x00 (0000ms, 0157ms total)
T92BC 000:343 JLINK_WriteReg(R6, 0x00000000)  returns 0x00 (0000ms, 0157ms total)
T92BC 000:343 JLINK_WriteReg(R7, 0x00000000)  returns 0x00 (0000ms, 0157ms total)
T92BC 000:343 JLINK_WriteReg(R8, 0x00000000)  returns 0x00 (0000ms, 0157ms total)
T92BC 000:343 JLINK_WriteReg(R9, 0x20000254)  returns 0x00 (0000ms, 0157ms total)
T92BC 000:343 JLINK_WriteReg(R10, 0x00000000)  returns 0x00 (0000ms, 0157ms total)
T92BC 000:343 JLINK_WriteReg(R11, 0x00000000)  returns 0x00 (0000ms, 0157ms total)
T92BC 000:343 JLINK_WriteReg(R12, 0x00000000)  returns 0x00 (0000ms, 0157ms total)
T92BC 000:343 JLINK_WriteReg(R13 (SP), 0x20001000)  returns 0x00 (0000ms, 0157ms total)
T92BC 000:343 JLINK_WriteReg(R14, 0x20000001)  returns 0x00 (0000ms, 0157ms total)
T92BC 000:343 JLINK_WriteReg(R15 (PC), 0x200001F2)  returns 0x00 (0000ms, 0157ms total)
T92BC 000:343 JLINK_WriteReg(XPSR, 0x01000000)  returns 0x00 (0000ms, 0157ms total)
T92BC 000:343 JLINK_WriteReg(MSP, 0x20001000)  returns 0x00 (0000ms, 0157ms total)
T92BC 000:343 JLINK_WriteReg(PSP, 0x20001000)  returns 0x00 (0001ms, 0158ms total)
T92BC 000:344 JLINK_WriteReg(CFBP, 0x00000000)  returns 0x00 (0000ms, 0158ms total)
T92BC 000:344 JLINK_SetBPEx(Addr = 0x20000000, Type = 0xFFFFFFF2)  returns 0x0000000C (0000ms, 0158ms total)
T92BC 000:344 JLINK_Go() (0001ms, 0159ms total)
T92BC 000:345 JLINK_IsHalted()  returns FALSE (0001ms, 0160ms total)
T92BC 000:351 JLINK_IsHalted() -- CPU_ReadMem(2 bytes @ 0x20000000)  returns TRUE (0003ms, 0162ms total)
T92BC 000:354 JLINK_ReadReg(R15 (PC))  returns 0x20000000 (0001ms, 0160ms total)
T92BC 000:355 JLINK_ClrBPEx(BPHandle = 0x0000000C)  returns 0x00 (0000ms, 0160ms total)
T92BC 000:355 JLINK_ReadReg(R0)  returns 0x00000000 (0000ms, 0160ms total)
T92BC 000:355 JLINK_WriteReg(R0, 0x00016C00)  returns 0x00 (0000ms, 0160ms total)
T92BC 000:355 JLINK_WriteReg(R1, 0x00000400)  returns 0x00 (0000ms, 0160ms total)
T92BC 000:355 JLINK_WriteReg(R2, 0x000000FF)  returns 0x00 (0000ms, 0160ms total)
T92BC 000:355 JLINK_WriteReg(R3, 0x00000000)  returns 0x00 (0000ms, 0160ms total)
T92BC 000:355 JLINK_WriteReg(R4, 0x00000000)  returns 0x00 (0000ms, 0160ms total)
T92BC 000:355 JLINK_WriteReg(R5, 0x00000000)  returns 0x00 (0000ms, 0160ms total)
T92BC 000:355 JLINK_WriteReg(R6, 0x00000000)  returns 0x00 (0000ms, 0160ms total)
T92BC 000:355 JLINK_WriteReg(R7, 0x00000000)  returns 0x00 (0000ms, 0160ms total)
T92BC 000:355 JLINK_WriteReg(R8, 0x00000000)  returns 0x00 (0000ms, 0160ms total)
T92BC 000:355 JLINK_WriteReg(R9, 0x20000254)  returns 0x00 (0000ms, 0160ms total)
T92BC 000:355 JLINK_WriteReg(R10, 0x00000000)  returns 0x00 (0000ms, 0160ms total)
T92BC 000:355 JLINK_WriteReg(R11, 0x00000000)  returns 0x00 (0000ms, 0160ms total)
T92BC 000:355 JLINK_WriteReg(R12, 0x00000000)  returns 0x00 (0000ms, 0160ms total)
T92BC 000:355 JLINK_WriteReg(R13 (SP), 0x20001000)  returns 0x00 (0000ms, 0160ms total)
T92BC 000:355 JLINK_WriteReg(R14, 0x20000001)  returns 0x00 (0000ms, 0160ms total)
T92BC 000:355 JLINK_WriteReg(R15 (PC), 0x200001F2)  returns 0x00 (0000ms, 0160ms total)
T92BC 000:355 JLINK_WriteReg(XPSR, 0x01000000)  returns 0x00 (0001ms, 0161ms total)
T92BC 000:356 JLINK_WriteReg(MSP, 0x20001000)  returns 0x00 (0000ms, 0161ms total)
T92BC 000:356 JLINK_WriteReg(PSP, 0x20001000)  returns 0x00 (0000ms, 0161ms total)
T92BC 000:356 JLINK_WriteReg(CFBP, 0x00000000)  returns 0x00 (0000ms, 0161ms total)
T92BC 000:356 JLINK_SetBPEx(Addr = 0x20000000, Type = 0xFFFFFFF2)  returns 0x0000000D (0000ms, 0161ms total)
T92BC 000:356 JLINK_Go() (0001ms, 0162ms total)
T92BC 000:357 JLINK_IsHalted()  returns FALSE (0001ms, 0163ms total)
T92BC 000:369 JLINK_IsHalted() -- CPU_ReadMem(2 bytes @ 0x20000000)  returns TRUE (0003ms, 0165ms total)
T92BC 000:372 JLINK_ReadReg(R15 (PC))  returns 0x20000000 (0001ms, 0163ms total)
T92BC 000:373 JLINK_ClrBPEx(BPHandle = 0x0000000D)  returns 0x00 (0000ms, 0163ms total)
T92BC 000:373 JLINK_ReadReg(R0)  returns 0x00000000 (0000ms, 0163ms total)
T92BC 000:373 JLINK_WriteReg(R0, 0x00017000)  returns 0x00 (0000ms, 0163ms total)
T92BC 000:373 JLINK_WriteReg(R1, 0x00000400)  returns 0x00 (0000ms, 0163ms total)
T92BC 000:373 JLINK_WriteReg(R2, 0x000000FF)  returns 0x00 (0000ms, 0163ms total)
T92BC 000:373 JLINK_WriteReg(R3, 0x00000000)  returns 0x00 (0000ms, 0163ms total)
T92BC 000:373 JLINK_WriteReg(R4, 0x00000000)  returns 0x00 (0000ms, 0163ms total)
T92BC 000:373 JLINK_WriteReg(R5, 0x00000000)  returns 0x00 (0000ms, 0163ms total)
T92BC 000:373 JLINK_WriteReg(R6, 0x00000000)  returns 0x00 (0000ms, 0163ms total)
T92BC 000:373 JLINK_WriteReg(R7, 0x00000000)  returns 0x00 (0000ms, 0163ms total)
T92BC 000:373 JLINK_WriteReg(R8, 0x00000000)  returns 0x00 (0000ms, 0163ms total)
T92BC 000:373 JLINK_WriteReg(R9, 0x20000254)  returns 0x00 (0000ms, 0163ms total)
T92BC 000:373 JLINK_WriteReg(R10, 0x00000000)  returns 0x00 (0000ms, 0163ms total)
T92BC 000:373 JLINK_WriteReg(R11, 0x00000000)  returns 0x00 (0000ms, 0163ms total)
T92BC 000:373 JLINK_WriteReg(R12, 0x00000000)  returns 0x00 (0000ms, 0163ms total)
T92BC 000:374 JLINK_WriteReg(R13 (SP), 0x20001000)  returns 0x00 (0000ms, 0164ms total)
T92BC 000:374 JLINK_WriteReg(R14, 0x20000001)  returns 0x00 (0000ms, 0164ms total)
T92BC 000:374 JLINK_WriteReg(R15 (PC), 0x200001F2)  returns 0x00 (0000ms, 0164ms total)
T92BC 000:374 JLINK_WriteReg(XPSR, 0x01000000)  returns 0x00 (0000ms, 0164ms total)
T92BC 000:374 JLINK_WriteReg(MSP, 0x20001000)  returns 0x00 (0000ms, 0164ms total)
T92BC 000:374 JLINK_WriteReg(PSP, 0x20001000)  returns 0x00 (0000ms, 0164ms total)
T92BC 000:374 JLINK_WriteReg(CFBP, 0x00000000)  returns 0x00 (0000ms, 0164ms total)
T92BC 000:374 JLINK_SetBPEx(Addr = 0x20000000, Type = 0xFFFFFFF2)  returns 0x0000000E (0000ms, 0164ms total)
T92BC 000:374 JLINK_Go() (0002ms, 0166ms total)
T92BC 000:376 JLINK_IsHalted()  returns FALSE (0000ms, 0166ms total)
T92BC 000:377 JLINK_IsHalted() -- CPU_ReadMem(2 bytes @ 0x20000000)  returns TRUE (0003ms, 0169ms total)
T92BC 000:380 JLINK_ReadReg(R15 (PC))  returns 0x20000000 (0001ms, 0167ms total)
T92BC 000:381 JLINK_ClrBPEx(BPHandle = 0x0000000E)  returns 0x00 (0000ms, 0167ms total)
T92BC 000:381 JLINK_ReadReg(R0)  returns 0x00000000 (0000ms, 0167ms total)
T92BC 000:381 JLINK_WriteReg(R0, 0x00017400)  returns 0x00 (0000ms, 0167ms total)
T92BC 000:381 JLINK_WriteReg(R1, 0x00000400)  returns 0x00 (0000ms, 0167ms total)
T92BC 000:381 JLINK_WriteReg(R2, 0x000000FF)  returns 0x00 (0000ms, 0167ms total)
T92BC 000:381 JLINK_WriteReg(R3, 0x00000000)  returns 0x00 (0000ms, 0167ms total)
T92BC 000:381 JLINK_WriteReg(R4, 0x00000000)  returns 0x00 (0000ms, 0167ms total)
T92BC 000:381 JLINK_WriteReg(R5, 0x00000000)  returns 0x00 (0000ms, 0167ms total)
T92BC 000:381 JLINK_WriteReg(R6, 0x00000000)  returns 0x00 (0000ms, 0167ms total)
T92BC 000:381 JLINK_WriteReg(R7, 0x00000000)  returns 0x00 (0000ms, 0167ms total)
T92BC 000:381 JLINK_WriteReg(R8, 0x00000000)  returns 0x00 (0000ms, 0167ms total)
T92BC 000:381 JLINK_WriteReg(R9, 0x20000254)  returns 0x00 (0000ms, 0167ms total)
T92BC 000:381 JLINK_WriteReg(R10, 0x00000000)  returns 0x00 (0000ms, 0167ms total)
T92BC 000:381 JLINK_WriteReg(R11, 0x00000000)  returns 0x00 (0000ms, 0167ms total)
T92BC 000:381 JLINK_WriteReg(R12, 0x00000000)  returns 0x00 (0000ms, 0167ms total)
T92BC 000:381 JLINK_WriteReg(R13 (SP), 0x20001000)  returns 0x00 (0000ms, 0167ms total)
T92BC 000:381 JLINK_WriteReg(R14, 0x20000001)  returns 0x00 (0000ms, 0167ms total)
T92BC 000:381 JLINK_WriteReg(R15 (PC), 0x200001F2)  returns 0x00 (0000ms, 0167ms total)
T92BC 000:381 JLINK_WriteReg(XPSR, 0x01000000)  returns 0x00 (0000ms, 0167ms total)
T92BC 000:381 JLINK_WriteReg(MSP, 0x20001000)  returns 0x00 (0000ms, 0167ms total)
T92BC 000:381 JLINK_WriteReg(PSP, 0x20001000)  returns 0x00 (0000ms, 0167ms total)
T92BC 000:381 JLINK_WriteReg(CFBP, 0x00000000)  returns 0x00 (0000ms, 0167ms total)
T92BC 000:381 JLINK_SetBPEx(Addr = 0x20000000, Type = 0xFFFFFFF2)  returns 0x0000000F (0001ms, 0168ms total)
T92BC 000:382 JLINK_Go() (0001ms, 0169ms total)
T92BC 000:383 JLINK_IsHalted()  returns FALSE (0001ms, 0170ms total)
T92BC 000:385 JLINK_IsHalted() -- CPU_ReadMem(2 bytes @ 0x20000000)  returns TRUE (0004ms, 0173ms total)
T92BC 000:389 JLINK_ReadReg(R15 (PC))  returns 0x20000000 (0000ms, 0169ms total)
T92BC 000:389 JLINK_ClrBPEx(BPHandle = 0x0000000F)  returns 0x00 (0000ms, 0169ms total)
T92BC 000:389 JLINK_ReadReg(R0)  returns 0x00000000 (0000ms, 0169ms total)
T92BC 000:389 JLINK_WriteReg(R0, 0x00017800)  returns 0x00 (0000ms, 0169ms total)
T92BC 000:389 JLINK_WriteReg(R1, 0x00000400)  returns 0x00 (0000ms, 0169ms total)
T92BC 000:389 JLINK_WriteReg(R2, 0x000000FF)  returns 0x00 (0000ms, 0169ms total)
T92BC 000:389 JLINK_WriteReg(R3, 0x00000000)  returns 0x00 (0000ms, 0169ms total)
T92BC 000:389 JLINK_WriteReg(R4, 0x00000000)  returns 0x00 (0000ms, 0169ms total)
T92BC 000:389 JLINK_WriteReg(R5, 0x00000000)  returns 0x00 (0000ms, 0169ms total)
T92BC 000:389 JLINK_WriteReg(R6, 0x00000000)  returns 0x00 (0000ms, 0169ms total)
T92BC 000:389 JLINK_WriteReg(R7, 0x00000000)  returns 0x00 (0000ms, 0169ms total)
T92BC 000:389 JLINK_WriteReg(R8, 0x00000000)  returns 0x00 (0000ms, 0169ms total)
T92BC 000:389 JLINK_WriteReg(R9, 0x20000254)  returns 0x00 (0000ms, 0169ms total)
T92BC 000:389 JLINK_WriteReg(R10, 0x00000000)  returns 0x00 (0000ms, 0169ms total)
T92BC 000:389 JLINK_WriteReg(R11, 0x00000000)  returns 0x00 (0000ms, 0169ms total)
T92BC 000:389 JLINK_WriteReg(R12, 0x00000000)  returns 0x00 (0000ms, 0169ms total)
T92BC 000:389 JLINK_WriteReg(R13 (SP), 0x20001000)  returns 0x00 (0000ms, 0169ms total)
T92BC 000:389 JLINK_WriteReg(R14, 0x20000001)  returns 0x00 (0001ms, 0170ms total)
T92BC 000:390 JLINK_WriteReg(R15 (PC), 0x200001F2)  returns 0x00 (0000ms, 0170ms total)
T92BC 000:390 JLINK_WriteReg(XPSR, 0x01000000)  returns 0x00 (0000ms, 0170ms total)
T92BC 000:390 JLINK_WriteReg(MSP, 0x20001000)  returns 0x00 (0000ms, 0170ms total)
T92BC 000:390 JLINK_WriteReg(PSP, 0x20001000)  returns 0x00 (0000ms, 0170ms total)
T92BC 000:390 JLINK_WriteReg(CFBP, 0x00000000)  returns 0x00 (0000ms, 0170ms total)
T92BC 000:390 JLINK_SetBPEx(Addr = 0x20000000, Type = 0xFFFFFFF2)  returns 0x00000010 (0000ms, 0170ms total)
T92BC 000:390 JLINK_Go() (0002ms, 0172ms total)
T92BC 000:392 JLINK_IsHalted() -- CPU_ReadMem(2 bytes @ 0x20000000)  returns TRUE (0003ms, 0175ms total)
T92BC 000:395 JLINK_ReadReg(R15 (PC))  returns 0x20000000 (0001ms, 0173ms total)
T92BC 000:396 JLINK_ClrBPEx(BPHandle = 0x00000010)  returns 0x00 (0000ms, 0173ms total)
T92BC 000:396 JLINK_ReadReg(R0)  returns 0x00000000 (0000ms, 0173ms total)
T92BC 000:396 JLINK_WriteReg(R0, 0x00000001)  returns 0x00 (0000ms, 0173ms total)
T92BC 000:396 JLINK_WriteReg(R1, 0x00000400)  returns 0x00 (0000ms, 0173ms total)
T92BC 000:396 JLINK_WriteReg(R2, 0x000000FF)  returns 0x00 (0000ms, 0173ms total)
T92BC 000:396 JLINK_WriteReg(R3, 0x00000000)  returns 0x00 (0000ms, 0173ms total)
T92BC 000:396 JLINK_WriteReg(R4, 0x00000000)  returns 0x00 (0000ms, 0173ms total)
T92BC 000:396 JLINK_WriteReg(R5, 0x00000000)  returns 0x00 (0000ms, 0173ms total)
T92BC 000:396 JLINK_WriteReg(R6, 0x00000000)  returns 0x00 (0000ms, 0173ms total)
T92BC 000:396 JLINK_WriteReg(R7, 0x00000000)  returns 0x00 (0000ms, 0173ms total)
T92BC 000:396 JLINK_WriteReg(R8, 0x00000000)  returns 0x00 (0000ms, 0173ms total)
T92BC 000:396 JLINK_WriteReg(R9, 0x20000254)  returns 0x00 (0000ms, 0173ms total)
T92BC 000:396 JLINK_WriteReg(R10, 0x00000000)  returns 0x00 (0000ms, 0173ms total)
T92BC 000:396 JLINK_WriteReg(R11, 0x00000000)  returns 0x00 (0000ms, 0173ms total)
T92BC 000:396 JLINK_WriteReg(R12, 0x00000000)  returns 0x00 (0000ms, 0173ms total)
T92BC 000:396 JLINK_WriteReg(R13 (SP), 0x20001000)  returns 0x00 (0000ms, 0173ms total)
T92BC 000:396 JLINK_WriteReg(R14, 0x20000001)  returns 0x00 (0000ms, 0173ms total)
T92BC 000:396 JLINK_WriteReg(R15 (PC), 0x20000062)  returns 0x00 (0000ms, 0173ms total)
T92BC 000:396 JLINK_WriteReg(XPSR, 0x01000000)  returns 0x00 (0000ms, 0173ms total)
T92BC 000:396 JLINK_WriteReg(MSP, 0x20001000)  returns 0x00 (0000ms, 0173ms total)
T92BC 000:396 JLINK_WriteReg(PSP, 0x20001000)  returns 0x00 (0000ms, 0173ms total)
T92BC 000:396 JLINK_WriteReg(CFBP, 0x00000000)  returns 0x00 (0000ms, 0173ms total)
T92BC 000:396 JLINK_SetBPEx(Addr = 0x20000000, Type = 0xFFFFFFF2)  returns 0x00000011 (0000ms, 0173ms total)
T92BC 000:396 JLINK_Go() (0002ms, 0175ms total)
T92BC 000:398 JLINK_IsHalted() -- CPU_ReadMem(2 bytes @ 0x20000000)  returns TRUE (0004ms, 0179ms total)
T92BC 000:402 JLINK_ReadReg(R15 (PC))  returns 0x20000000 (0000ms, 0175ms total)
T92BC 000:402 JLINK_ClrBPEx(BPHandle = 0x00000011)  returns 0x00 (0000ms, 0175ms total)
T92BC 000:402 JLINK_ReadReg(R0)  returns 0x00000000 (0000ms, 0175ms total)
T92BC 000:457 JLINK_WriteMem(0x20000000, 0x0258 Bytes, ...) -- Data:  00 BE 0A E0 0D 78 2D 06 68 40 08 24 40 00 00 D3 ... -- CPU_WriteMem(600 bytes @ 0x20000000)  returns 0x258 (0007ms, 0182ms total)
T92BC 000:465 JLINK_WriteReg(R0, 0x00000000)  returns 0x00 (0000ms, 0183ms total)
T92BC 000:465 JLINK_WriteReg(R1, 0x00F42400)  returns 0x00 (0000ms, 0183ms total)
T92BC 000:465 JLINK_WriteReg(R2, 0x00000002)  returns 0x00 (0000ms, 0183ms total)
T92BC 000:465 JLINK_WriteReg(R3, 0x00000000)  returns 0x00 (0000ms, 0183ms total)
T92BC 000:465 JLINK_WriteReg(R4, 0x00000000)  returns 0x00 (0000ms, 0183ms total)
T92BC 000:465 JLINK_WriteReg(R5, 0x00000000)  returns 0x00 (0000ms, 0183ms total)
T92BC 000:465 JLINK_WriteReg(R6, 0x00000000)  returns 0x00 (0000ms, 0183ms total)
T92BC 000:465 JLINK_WriteReg(R7, 0x00000000)  returns 0x00 (0000ms, 0183ms total)
T92BC 000:465 JLINK_WriteReg(R8, 0x00000000)  returns 0x00 (0000ms, 0183ms total)
T92BC 000:465 JLINK_WriteReg(R9, 0x20000254)  returns 0x00 (0000ms, 0183ms total)
T92BC 000:465 JLINK_WriteReg(R10, 0x00000000)  returns 0x00 (0000ms, 0183ms total)
T92BC 000:465 JLINK_WriteReg(R11, 0x00000000)  returns 0x00 (0000ms, 0183ms total)
T92BC 000:465 JLINK_WriteReg(R12, 0x00000000)  returns 0x00 (0000ms, 0183ms total)
T92BC 000:465 JLINK_WriteReg(R13 (SP), 0x20001000)  returns 0x00 (0000ms, 0183ms total)
T92BC 000:465 JLINK_WriteReg(R14, 0x20000001)  returns 0x00 (0000ms, 0183ms total)
T92BC 000:465 JLINK_WriteReg(R15 (PC), 0x20000028)  returns 0x00 (0000ms, 0183ms total)
T92BC 000:465 JLINK_WriteReg(XPSR, 0x01000000)  returns 0x00 (0000ms, 0183ms total)
T92BC 000:465 JLINK_WriteReg(MSP, 0x20001000)  returns 0x00 (0000ms, 0183ms total)
T92BC 000:465 JLINK_WriteReg(PSP, 0x20001000)  returns 0x00 (0000ms, 0183ms total)
T92BC 000:465 JLINK_WriteReg(CFBP, 0x00000000)  returns 0x00 (0000ms, 0183ms total)
T92BC 000:465 JLINK_SetBPEx(Addr = 0x20000000, Type = 0xFFFFFFF2) -- CPU_ReadMem(2 bytes @ 0x20000000)  returns 0x00000012 (0001ms, 0184ms total)
T92BC 000:466 JLINK_Go() -- CPU_WriteMem(2 bytes @ 0x20000000) (0002ms, 0186ms total)
T92BC 000:468 JLINK_IsHalted() -- CPU_ReadMem(2 bytes @ 0x20000000)  returns TRUE (0004ms, 0190ms total)
T92BC 000:472 JLINK_ReadReg(R15 (PC))  returns 0x20000000 (0000ms, 0186ms total)
T92BC 000:472 JLINK_ClrBPEx(BPHandle = 0x00000012)  returns 0x00 (0000ms, 0186ms total)
T92BC 000:472 JLINK_ReadReg(R0)  returns 0x00000000 (0000ms, 0186ms total)
T92BC 000:472 JLINK_WriteMem(0x20000258, 0x01A8 Bytes, ...) -- Data:  38 2F 00 20 F5 40 01 00 07 41 01 00 09 41 01 00 ... -- CPU_WriteMem(424 bytes @ 0x20000258)  returns 0x1A8 (0006ms, 0192ms total)
T92BC 000:478 JLINK_WriteMem(0x20000400, 0x0258 Bytes, ...) -- Data:  80 6A F0 21 08 40 30 28 06 D1 10 48 C0 6A 08 40 ... -- CPU_WriteMem(600 bytes @ 0x20000400)  returns 0x258 (0007ms, 0199ms total)
T92BC 000:485 JLINK_WriteReg(R0, 0x00014000)  returns 0x00 (0000ms, 0199ms total)
T92BC 000:485 JLINK_WriteReg(R1, 0x00000400)  returns 0x00 (0000ms, 0199ms total)
T92BC 000:485 JLINK_WriteReg(R2, 0x20000258)  returns 0x00 (0000ms, 0199ms total)
T92BC 000:485 JLINK_WriteReg(R3, 0x00000000)  returns 0x00 (0000ms, 0199ms total)
T92BC 000:485 JLINK_WriteReg(R4, 0x00000000)  returns 0x00 (0001ms, 0200ms total)
T92BC 000:486 JLINK_WriteReg(R5, 0x00000000)  returns 0x00 (0000ms, 0200ms total)
T92BC 000:486 JLINK_WriteReg(R6, 0x00000000)  returns 0x00 (0000ms, 0200ms total)
T92BC 000:486 JLINK_WriteReg(R7, 0x00000000)  returns 0x00 (0000ms, 0200ms total)
T92BC 000:486 JLINK_WriteReg(R8, 0x00000000)  returns 0x00 (0000ms, 0200ms total)
T92BC 000:486 JLINK_WriteReg(R9, 0x20000254)  returns 0x00 (0000ms, 0200ms total)
T92BC 000:486 JLINK_WriteReg(R10, 0x00000000)  returns 0x00 (0000ms, 0200ms total)
T92BC 000:486 JLINK_WriteReg(R11, 0x00000000)  returns 0x00 (0000ms, 0200ms total)
T92BC 000:486 JLINK_WriteReg(R12, 0x00000000)  returns 0x00 (0000ms, 0200ms total)
T92BC 000:486 JLINK_WriteReg(R13 (SP), 0x20001000)  returns 0x00 (0000ms, 0200ms total)
T92BC 000:486 JLINK_WriteReg(R14, 0x20000001)  returns 0x00 (0000ms, 0200ms total)
T92BC 000:486 JLINK_WriteReg(R15 (PC), 0x20000130)  returns 0x00 (0000ms, 0200ms total)
T92BC 000:486 JLINK_WriteReg(XPSR, 0x01000000)  returns 0x00 (0000ms, 0200ms total)
T92BC 000:486 JLINK_WriteReg(MSP, 0x20001000)  returns 0x00 (0000ms, 0200ms total)
T92BC 000:486 JLINK_WriteReg(PSP, 0x20001000)  returns 0x00 (0000ms, 0200ms total)
T92BC 000:486 JLINK_WriteReg(CFBP, 0x00000000)  returns 0x00 (0000ms, 0200ms total)
T92BC 000:486 JLINK_SetBPEx(Addr = 0x20000000, Type = 0xFFFFFFF2)  returns 0x00000013 (0000ms, 0200ms total)
T92BC 000:486 JLINK_Go() (0002ms, 0202ms total)
T92BC 000:488 JLINK_IsHalted()  returns FALSE (0000ms, 0202ms total)
T92BC 000:498 JLINK_IsHalted()  returns FALSE (0000ms, 0202ms total)
T92BC 000:499 JLINK_IsHalted()  returns FALSE (0000ms, 0202ms total)
T92BC 000:500 JLINK_IsHalted() -- CPU_ReadMem(2 bytes @ 0x20000000)  returns TRUE (0003ms, 0205ms total)
T92BC 000:503 JLINK_ReadReg(R15 (PC))  returns 0x20000000 (0001ms, 0203ms total)
T92BC 000:504 JLINK_ClrBPEx(BPHandle = 0x00000013)  returns 0x00 (0000ms, 0203ms total)
T92BC 000:504 JLINK_ReadReg(R0)  returns 0x00000000 (0000ms, 0203ms total)
T92BC 000:504 JLINK_WriteMem(0x20000258, 0x01A8 Bytes, ...) -- Data:  00 20 48 60 08 72 88 48 08 82 00 20 48 82 47 E0 ... -- CPU_WriteMem(424 bytes @ 0x20000258)  returns 0x1A8 (0017ms, 0220ms total)
T92BC 000:521 JLINK_WriteMem(0x20000400, 0x0258 Bytes, ...) -- Data:  27 48 03 F0 65 F8 05 46 00 BF 2F 46 00 2F 06 D0 ... -- CPU_WriteMem(600 bytes @ 0x20000400)  returns 0x258 (0008ms, 0228ms total)
T92BC 000:529 JLINK_WriteReg(R0, 0x00014400)  returns 0x00 (0000ms, 0228ms total)
T92BC 000:529 JLINK_WriteReg(R1, 0x00000400)  returns 0x00 (0000ms, 0228ms total)
T92BC 000:529 JLINK_WriteReg(R2, 0x20000258)  returns 0x00 (0000ms, 0228ms total)
T92BC 000:529 JLINK_WriteReg(R3, 0x00000000)  returns 0x00 (0000ms, 0228ms total)
T92BC 000:529 JLINK_WriteReg(R4, 0x00000000)  returns 0x00 (0000ms, 0228ms total)
